T566C 000:004.455   SEGGER J-Link V8.82 Log File
T566C 000:004.596   DLL Compiled: Oct 29 2025 11:42:48
T566C 000:004.616   Logging started @ 2025-11-06 06:50
T566C 000:004.634   Process: D:\keil\UV4\UV4.exe
T566C 000:004.660 - 4.652ms 
T566C 000:004.676 JLINK_SetWarnOutHandler(...)
T566C 000:004.689 - 0.014ms 
T566C 000:004.705 JLINK_OpenEx(...)
T566C 000:259.145   Firmware: J-Link V9 compiled May  7 2021 16:26:12
T566C 000:260.569   Firmware: J-Link V9 compiled May  7 2021 16:26:12
T566C 000:260.738   Decompressing FW timestamp took 136 us
T566C 000:267.519   Hardware: V9.70
T566C 000:267.552   S/N: 59768878
T566C 000:267.570   OEM: SEGGER
T566C 000:267.589   Feature(s): RDI, GDB, FlashDL, FlashBP, JFlash
T566C 000:268.855   Bootloader: (FW returned invalid version)
T566C 000:278.546   TELNET listener socket opened on port 19021
T566C 000:278.807   WEBSRV WEBSRV_Init(): Starting webserver thread(s)
T566C 000:278.864   WEBSRV Failed to put socket into listener state (port 19080)
T566C 000:278.890   WEBSRV Failed to put socket into listener state (port 19081)
T566C 000:278.917   WEBSRV Failed to put socket into listener state (port 19082)
T566C 000:278.940   WEBSRV Failed to put socket into listener state (port 19083)
T566C 000:278.962   WEBSRV Failed to put socket into listener state (port 19084)
T566C 000:278.985   WEBSRV Failed to put socket into listener state (port 19085)
T566C 000:279.008   WEBSRV Failed to put socket into listener state (port 19086)
T566C 000:279.076   WEBSRV Webserver running on local port 19087
T566C 000:279.309   Looking for J-Link GUI Server exe at: D:\keil\ARM\Segger\JLinkGUIServer.exe
T566C 000:279.506   Looking for J-Link GUI Server exe at: E:\j-linkv8\JLink_V882\JLinkGUIServer.exe
T566C 000:279.533   Forking J-Link GUI Server: E:\j-linkv8\JLink_V882\JLinkGUIServer.exe
T566C 000:281.741   J-Link GUI Server info: "J-Link GUI server V8.82 "
T566C 000:282.146 - 277.436ms returns "O.K."
T566C 000:282.180 JLINK_GetEmuCaps()
T566C 000:282.197 - 0.015ms returns 0xB9FF7BBF
T566C 000:282.212 JLINK_TIF_GetAvailable(...)
T566C 000:282.995 - 0.781ms 
T566C 000:283.026 JLINK_SetErrorOutHandler(...)
T566C 000:283.045 - 0.019ms 
T566C 000:283.094 JLINK_ExecCommand("ProjectFile = "E:\baoznag\baoznag\keyan\ble_app_mpu9250 216 origin\project\mdk5\JLinkSettings.ini"", ...). 
T566C 000:299.835   Ref file found at: D:\keil\ARM\Segger\JLinkDevices.ref
T566C 000:299.932   REF file references invalid XML file: E:\j-linkv8\JLink_V882\JLinkDevices.xml
T566C 000:301.491 - 18.400ms returns 0x00
T566C 000:304.305 JLINK_ExecCommand("Device = nRF52832_xxAA", ...). 
T566C 000:305.479   Flash bank @ 0x00000000: SFL: Parsing sectorization info from ELF file
T566C 000:305.504     FlashDevice.SectorInfo[0]: .SectorSize = 0x00000400, .SectorStartAddr = 0x00000000
T566C 000:305.523   FlashBank @0x00000000: Sectorization info from SFL ELF file ignored because sectorization override from DLL / XML file is active.
T566C 000:308.079   Device "NRF52832_XXAA" selected.
T566C 000:308.495 - 4.166ms returns 0x00
T566C 000:308.527 JLINK_ExecCommand("DisableConnectionTimeout", ...). 
T566C 000:308.547   ERROR: Unknown command
T566C 000:308.567 - 0.024ms returns 0x01
T566C 000:308.581 JLINK_GetHardwareVersion()
T566C 000:308.594 - 0.012ms returns 97000
T566C 000:308.608 JLINK_GetDLLVersion()
T566C 000:308.621 - 0.014ms returns 88200
T566C 000:308.635 JLINK_GetOEMString(...)
T566C 000:308.649 JLINK_GetFirmwareString(...)
T566C 000:308.661 - 0.012ms 
T566C 000:316.363 JLINK_GetDLLVersion()
T566C 000:316.390 - 0.026ms returns 88200
T566C 000:316.404 JLINK_GetCompileDateTime()
T566C 000:316.416 - 0.012ms 
T566C 000:318.206 JLINK_GetFirmwareString(...)
T566C 000:318.228 - 0.021ms 
T566C 000:319.988 JLINK_GetHardwareVersion()
T566C 000:320.009 - 0.020ms returns 97000
T566C 000:321.630 JLINK_GetSN()
T566C 000:321.650 - 0.019ms returns 59768878
T566C 000:323.313 JLINK_GetOEMString(...)
T566C 000:326.741 JLINK_TIF_Select(JLINKARM_TIF_SWD)
T566C 000:328.938 - 2.198ms returns 0x00
T566C 000:328.970 JLINK_HasError()
T566C 000:329.036 JLINK_SetSpeed(5000)
T566C 000:330.018 - 0.981ms 
T566C 000:330.039 JLINK_GetId()
T566C 000:337.054   InitTarget() start
T566C 000:337.090    J-Link Script File: Executing InitTarget()
T566C 000:340.832   InitTarget() end - Took 1.97ms
T566C 000:343.087   Found SW-DP with ID 0x2BA01477
T566C 000:346.992   DPIDR: 0x2BA01477
T566C 000:348.923   CoreSight SoC-400 or earlier
T566C 000:350.694   Scanning AP map to find all available APs
T566C 000:353.255   AP[2]: Stopped AP scan as end of AP map has been reached
T566C 000:354.953   AP[0]: AHB-AP (IDR: 0x24770011, ADDR: 0x00000000)
T566C 000:356.708   AP[1]: JTAG-AP (IDR: 0x02880000, ADDR: 0x01000000)
T566C 000:358.437   Iterating through AP map to find AHB-AP to use
T566C 000:361.457   AP[0]: Core found
T566C 000:363.813   AP[0]: AHB-AP ROM base: 0xE00FF000
T566C 000:366.175   CPUID register: 0x410FC241. Implementer code: 0x41 (ARM)
T566C 000:367.890   Found Cortex-M4 r0p1, Little endian.
T566C 000:368.179   -- Max. mem block: 0x0000D088
T566C 000:368.616   CPU_ReadMem(4 bytes @ 0xE000EDF0)
T566C 000:368.864   CPU_ReadMem(4 bytes @ 0xE0002000)
T566C 000:370.926   FPUnit: 6 code (BP) slots and 2 literal slots
T566C 000:370.957   CPU_ReadMem(4 bytes @ 0xE000EDFC)
T566C 000:371.211   CPU_ReadMem(4 bytes @ 0xE0001000)
T566C 000:371.455   CPU_WriteMem(4 bytes @ 0xE0001000)
T566C 000:371.697   CPU_ReadMem(4 bytes @ 0xE000ED88)
T566C 000:372.021   CPU_WriteMem(4 bytes @ 0xE000ED88)
T566C 000:372.269   CPU_ReadMem(4 bytes @ 0xE000ED88)
T566C 000:372.512   CPU_WriteMem(4 bytes @ 0xE000ED88)
T566C 000:374.545   CoreSight components:
T566C 000:376.370   ROMTbl[0] @ E00FF000
T566C 000:376.404   CPU_ReadMem(64 bytes @ 0xE00FF000)
T566C 000:376.911   CPU_ReadMem(32 bytes @ 0xE000EFE0)
T566C 000:379.261   [0][0]: E000E000 CID B105E00D PID 000BB00C SCS-M7
T566C 000:379.300   CPU_ReadMem(32 bytes @ 0xE0001FE0)
T566C 000:382.270   [0][1]: E0001000 CID B105E00D PID 003BB002 DWT
T566C 000:382.306   CPU_ReadMem(32 bytes @ 0xE0002FE0)
T566C 000:384.514   [0][2]: E0002000 CID B105E00D PID 002BB003 FPB
T566C 000:384.548   CPU_ReadMem(32 bytes @ 0xE0000FE0)
T566C 000:386.733   [0][3]: E0000000 CID B105E00D PID 003BB001 ITM
T566C 000:386.770   CPU_ReadMem(32 bytes @ 0xE0040FE0)
T566C 000:389.071   [0][4]: E0040000 CID B105900D PID 000BB9A1 TPIU
T566C 000:389.100   CPU_ReadMem(32 bytes @ 0xE0041FE0)
T566C 000:391.200   [0][5]: E0041000 CID B105900D PID 000BB925 ETM
T566C 000:391.448 - 61.408ms returns 0x2BA01477
T566C 000:391.473 JLINK_GetDLLVersion()
T566C 000:391.485 - 0.012ms returns 88200
T566C 000:391.500 JLINK_CORE_GetFound()
T566C 000:391.512 - 0.012ms returns 0xE0000FF
T566C 000:391.526 JLINK_GetDebugInfo(0x100 = JLINKARM_ROM_TABLE_ADDR_INDEX)
T566C 000:391.539   Value=0xE00FF000
T566C 000:391.557 - 0.031ms returns 0
T566C 000:394.329 JLINK_GetDebugInfo(0x100 = JLINKARM_ROM_TABLE_ADDR_INDEX)
T566C 000:394.354   Value=0xE00FF000
T566C 000:394.373 - 0.044ms returns 0
T566C 000:394.387 JLINK_GetDebugInfo(0x101 = JLINKARM_DEBUG_INFO_ETM_ADDR_INDEX)
T566C 000:394.399   Value=0xE0041000
T566C 000:394.417 - 0.030ms returns 0
T566C 000:394.431 JLINK_ReadMemEx(0xE0041FD0, 0x20 Bytes, Flags = 0x02000004)
T566C 000:394.471   CPU_ReadMem(32 bytes @ 0xE0041FD0)
T566C 000:395.026   Data:  04 00 00 00 00 00 00 00 00 00 00 00 00 00 00 00 ...
T566C 000:395.052 - 0.620ms returns 32 (0x20)
T566C 000:395.066 JLINK_GetDebugInfo(0x102 = JLINKARM_DEBUG_INFO_MTB_ADDR_INDEX)
T566C 000:395.079   Value=0x00000000
T566C 000:395.097 - 0.031ms returns 0
T566C 000:395.110 JLINK_GetDebugInfo(0x103 = JLINKARM_DEBUG_INFO_TPIU_ADDR_INDEX)
T566C 000:395.123   Value=0xE0040000
T566C 000:395.141 - 0.030ms returns 0
T566C 000:395.154 JLINK_GetDebugInfo(0x104 = JLINKARM_DEBUG_INFO_ITM_ADDR_INDEX)
T566C 000:395.167   Value=0xE0000000
T566C 000:395.184 - 0.030ms returns 0
T566C 000:395.197 JLINK_GetDebugInfo(0x105 = JLINKARM_DEBUG_INFO_DWT_ADDR_INDEX)
T566C 000:395.210   Value=0xE0001000
T566C 000:395.227 - 0.030ms returns 0
T566C 000:395.242 JLINK_GetDebugInfo(0x106 = JLINKARM_DEBUG_INFO_FPB_ADDR_INDEX)
T566C 000:395.256   Value=0xE0002000
T566C 000:395.274 - 0.031ms returns 0
T566C 000:395.287 JLINK_GetDebugInfo(0x107 = JLINKARM_DEBUG_INFO_NVIC_ADDR_INDEX)
T566C 000:395.300   Value=0xE000E000
T566C 000:395.318 - 0.031ms returns 0
T566C 000:395.332 JLINK_GetDebugInfo(0x10C = JLINKARM_DEBUG_INFO_DBG_ADDR_INDEX)
T566C 000:395.344   Value=0xE000EDF0
T566C 000:395.363 - 0.031ms returns 0
T566C 000:395.376 JLINK_ReadMemU32(0xE000EF40, 0x1 Items)
T566C 000:395.393   CPU_ReadMem(4 bytes @ 0xE000EF40)
T566C 000:395.779   Data:  21 00 11 10
T566C 000:395.804 - 0.428ms returns 1 (0x1)
T566C 000:395.821 JLINK_ReadMemU32(0xE000EF44, 0x1 Items)
T566C 000:395.837   CPU_ReadMem(4 bytes @ 0xE000EF44)
T566C 000:396.250   Data:  11 00 00 11
T566C 000:396.276 - 0.455ms returns 1 (0x1)
T566C 000:396.291 JLINK_ReadMemU32(0xE000ED00, 0x1 Items)
T566C 000:396.308   CPU_ReadMem(4 bytes @ 0xE000ED00)
T566C 000:396.719   Data:  41 C2 0F 41
T566C 000:396.744   Debug reg: CPUID
T566C 000:396.762 - 0.470ms returns 1 (0x1)
T566C 000:396.777 JLINK_GetDebugInfo(0x10F = JLINKARM_DEBUG_INFO_HAS_CORTEX_M_SECURITY_EXT_INDEX)
T566C 000:396.790   Value=0x00000000
T566C 000:396.808 - 0.031ms returns 0
T566C 000:396.822 JLINK_HasError()
T566C 000:396.837 JLINK_SetResetType(JLINKARM_CM3_RESET_TYPE_NORMAL)
T566C 000:396.850 - 0.013ms returns JLINKARM_CM3_RESET_TYPE_NORMAL
T566C 000:396.863 JLINK_Reset()
T566C 000:396.879   JLINK_GetResetTypeDesc
T566C 000:396.893   - 0.013ms 
T566C 000:398.960   Reset type: NORMAL (https://kb.segger.com/J-Link_Reset_Strategies)
T566C 000:398.994   CPU is running
T566C 000:399.015   CPU_WriteMem(4 bytes @ 0xE000EDF0)
T566C 000:399.461   CPU is running
T566C 000:399.483   CPU_WriteMem(4 bytes @ 0xE000EDFC)
T566C 000:401.695   Reset: Halt core after reset via DEMCR.VC_CORERESET.
T566C 000:404.087   Reset: Reset device via AIRCR.SYSRESETREQ.
T566C 000:404.131   CPU is running
T566C 000:404.161   CPU_WriteMem(4 bytes @ 0xE000ED0C)
T566C 000:457.354   CPU_ReadMem(4 bytes @ 0xE000EDF0)
T566C 000:457.619   CPU_ReadMem(4 bytes @ 0xE000EDF0)
T566C 000:459.667   CPU_WriteMem(4 bytes @ 0xE000EDFC)
T566C 000:465.534   CPU_ReadMem(4 bytes @ 0xE000EDF0)
T566C 000:467.655   CPU_WriteMem(4 bytes @ 0xE0002000)
T566C 000:467.914   CPU_ReadMem(4 bytes @ 0xE000EDFC)
T566C 000:468.163   CPU_ReadMem(4 bytes @ 0xE0001000)
T566C 000:468.413 - 71.549ms 
T566C 000:468.462 JLINK_Halt()
T566C 000:468.476 - 0.014ms returns 0x00
T566C 000:468.490 JLINK_ReadMemU32(0xE000EDF0, 0x1 Items)
T566C 000:468.510   CPU_ReadMem(4 bytes @ 0xE000EDF0)
T566C 000:468.861   Data:  03 00 03 00
T566C 000:468.883   Debug reg: DHCSR
T566C 000:468.902 - 0.412ms returns 1 (0x1)
T566C 000:468.925 JLINK_WriteU32(0xE000EDF0, 0xA05F0003)
T566C 000:468.939   Debug reg: DHCSR
T566C 000:469.263   CPU_WriteMem(4 bytes @ 0xE000EDF0)
T566C 000:469.645 - 0.721ms returns 0 (0x00000000)
T566C 000:469.662 JLINK_WriteU32(0xE000EDFC, 0x01000000)
T566C 000:469.674   Debug reg: DEMCR
T566C 000:469.695   CPU_WriteMem(4 bytes @ 0xE000EDFC)
T566C 000:470.126 - 0.464ms returns 0 (0x00000000)
T566C 000:477.542 JLINK_GetHWStatus(...)
T566C 000:477.995 - 0.452ms returns 0
T566C 000:484.890 JLINK_GetNumBPUnits(Type = 0xFFFFFF00)
T566C 000:484.915 - 0.025ms returns 0x06
T566C 000:484.929 JLINK_GetNumBPUnits(Type = 0xF0)
T566C 000:484.942 - 0.012ms returns 0x2000
T566C 000:484.954 JLINK_GetNumWPUnits()
T566C 000:484.966 - 0.011ms returns 4
T566C 000:490.115 JLINK_GetSpeed()
T566C 000:490.141 - 0.025ms returns 4000
T566C 000:493.467 JLINK_ReadMemU32(0xE000E004, 0x1 Items)
T566C 000:493.500   CPU_ReadMem(4 bytes @ 0xE000E004)
T566C 000:493.893   Data:  01 00 00 00
T566C 000:493.916 - 0.448ms returns 1 (0x1)
T566C 000:493.930 JLINK_ReadMemU32(0xE000E004, 0x1 Items)
T566C 000:493.945   CPU_ReadMem(4 bytes @ 0xE000E004)
T566C 000:494.375   Data:  01 00 00 00
T566C 000:494.396 - 0.465ms returns 1 (0x1)
T566C 000:494.410 JLINK_WriteMemEx(0xE0001000, 0x0000001C Bytes, Flags = 0x02000004)
T566C 000:494.426   Data:  01 00 00 00 00 00 00 00 00 00 00 00 00 00 00 00 ...
T566C 000:494.456   CPU_WriteMem(28 bytes @ 0xE0001000)
T566C 000:495.229 - 0.818ms returns 0x1C
T566C 000:495.254 JLINK_Halt()
T566C 000:495.268 - 0.013ms returns 0x00
T566C 000:495.281 JLINK_IsHalted()
T566C 000:495.295 - 0.013ms returns TRUE
T566C 000:498.734 JLINK_WriteMem(0x20000000, 0x708 Bytes, ...)
T566C 000:498.759   Data:  00 BE 0A E0 0D 78 2D 06 68 40 08 24 40 00 00 D3 ...
T566C 000:499.130   CPU_WriteMem(1800 bytes @ 0x20000000)
T566C 000:505.134 - 6.399ms returns 0x708
T566C 000:505.190 JLINK_HasError()
T566C 000:505.208 JLINK_WriteReg(R0, 0x00000000)
T566C 000:505.223 - 0.015ms returns 0
T566C 000:505.236 JLINK_WriteReg(R1, 0x03D09000)
T566C 000:505.249 - 0.013ms returns 0
T566C 000:505.263 JLINK_WriteReg(R2, 0x00000001)
T566C 000:505.276 - 0.013ms returns 0
T566C 000:505.289 JLINK_WriteReg(R3, 0x00000000)
T566C 000:505.301 - 0.012ms returns 0
T566C 000:505.314 JLINK_WriteReg(R4, 0x00000000)
T566C 000:505.327 - 0.012ms returns 0
T566C 000:505.339 JLINK_WriteReg(R5, 0x00000000)
T566C 000:505.352 - 0.012ms returns 0
T566C 000:505.365 JLINK_WriteReg(R6, 0x00000000)
T566C 000:505.377 - 0.012ms returns 0
T566C 000:505.390 JLINK_WriteReg(R7, 0x00000000)
T566C 000:505.404 - 0.013ms returns 0
T566C 000:505.426 JLINK_WriteReg(R8, 0x00000000)
T566C 000:505.439 - 0.021ms returns 0
T566C 000:505.453 JLINK_WriteReg(R9, 0x20000704)
T566C 000:505.465 - 0.012ms returns 0
T566C 000:505.478 JLINK_WriteReg(R10, 0x00000000)
T566C 000:505.491 - 0.013ms returns 0
T566C 000:505.504 JLINK_WriteReg(R11, 0x00000000)
T566C 000:505.517 - 0.012ms returns 0
T566C 000:505.530 JLINK_WriteReg(R12, 0x00000000)
T566C 000:505.542 - 0.012ms returns 0
T566C 000:505.556 JLINK_WriteReg(R13 (SP), 0x20004000)
T566C 000:505.569 - 0.013ms returns 0
T566C 000:505.582 JLINK_WriteReg(R14, 0x20000001)
T566C 000:505.595 - 0.012ms returns 0
T566C 000:505.609 JLINK_WriteReg(R15 (PC), 0x20000020)
T566C 000:505.623 - 0.015ms returns 0
T566C 000:505.635 JLINK_WriteReg(XPSR, 0x01000000)
T566C 000:505.648 - 0.012ms returns 0
T566C 000:505.661 JLINK_WriteReg(MSP, 0x20004000)
T566C 000:505.673 - 0.012ms returns 0
T566C 000:505.686 JLINK_WriteReg(PSP, 0x20004000)
T566C 000:505.699 - 0.012ms returns 0
T566C 000:505.712 JLINK_WriteReg(CFBP, 0x00000000)
T566C 000:505.725 - 0.013ms returns 0
T566C 000:505.738 JLINK_SetBPEx(Addr = 0x20000000, Type = 0xFFFFFFF2)
T566C 000:505.756   CPU_ReadMem(2 bytes @ 0x20000000)
T566C 000:506.297 - 0.558ms returns 0x00000001
T566C 000:506.313 JLINK_Go()
T566C 000:506.328   CPU_WriteMem(2 bytes @ 0x20000000)
T566C 000:506.864   CPU_ReadMem(4 bytes @ 0xE0001000)
T566C 000:507.356   CPU_WriteMem(4 bytes @ 0xE0002008)
T566C 000:507.377   CPU_WriteMem(4 bytes @ 0xE000200C)
T566C 000:507.396   CPU_WriteMem(4 bytes @ 0xE0002010)
T566C 000:507.419   CPU_WriteMem(4 bytes @ 0xE0002014)
T566C 000:507.437   CPU_WriteMem(4 bytes @ 0xE0002018)
T566C 000:507.456   CPU_WriteMem(4 bytes @ 0xE000201C)
T566C 000:508.772   CPU_WriteMem(4 bytes @ 0xE0001004)
T566C 000:513.840   Memory map 'after startup completion point' is active
T566C 000:513.885 - 7.571ms 
T566C 000:513.902 JLINK_IsHalted()
T566C 000:516.130   CPU_ReadMem(2 bytes @ 0x20000000)
T566C 000:516.600 - 2.697ms returns TRUE
T566C 000:516.621 JLINK_ReadReg(R15 (PC))
T566C 000:516.637 - 0.016ms returns 0x20000000
T566C 000:516.651 JLINK_ClrBPEx(BPHandle = 0x00000001)
T566C 000:516.664 - 0.012ms returns 0x00
T566C 000:516.677 JLINK_ReadReg(R0)
T566C 000:516.690 - 0.013ms returns 0x00000000
T566C 000:516.991 JLINK_HasError()
T566C 000:517.010 JLINK_WriteReg(R0, 0x00026000)
T566C 000:517.024 - 0.013ms returns 0
T566C 000:517.037 JLINK_WriteReg(R1, 0x00001000)
T566C 000:517.050 - 0.013ms returns 0
T566C 000:517.063 JLINK_WriteReg(R2, 0x000000FF)
T566C 000:517.076 - 0.013ms returns 0
T566C 000:517.089 JLINK_WriteReg(R3, 0x00000000)
T566C 000:517.102 - 0.012ms returns 0
T566C 000:517.115 JLINK_WriteReg(R4, 0x00000000)
T566C 000:517.169 - 0.053ms returns 0
T566C 000:517.185 JLINK_WriteReg(R5, 0x00000000)
T566C 000:517.198 - 0.013ms returns 0
T566C 000:517.211 JLINK_WriteReg(R6, 0x00000000)
T566C 000:517.224 - 0.013ms returns 0
T566C 000:517.237 JLINK_WriteReg(R7, 0x00000000)
T566C 000:517.250 - 0.013ms returns 0
T566C 000:517.264 JLINK_WriteReg(R8, 0x00000000)
T566C 000:517.276 - 0.012ms returns 0
T566C 000:517.290 JLINK_WriteReg(R9, 0x20000704)
T566C 000:517.304 - 0.013ms returns 0
T566C 000:517.317 JLINK_WriteReg(R10, 0x00000000)
T566C 000:517.330 - 0.013ms returns 0
T566C 000:517.343 JLINK_WriteReg(R11, 0x00000000)
T566C 000:517.356 - 0.012ms returns 0
T566C 000:517.370 JLINK_WriteReg(R12, 0x00000000)
T566C 000:517.383 - 0.012ms returns 0
T566C 000:517.397 JLINK_WriteReg(R13 (SP), 0x20004000)
T566C 000:517.409 - 0.012ms returns 0
T566C 000:517.422 JLINK_WriteReg(R14, 0x20000001)
T566C 000:517.435 - 0.013ms returns 0
T566C 000:517.448 JLINK_WriteReg(R15 (PC), 0x20000314)
T566C 000:517.461 - 0.013ms returns 0
T566C 000:517.475 JLINK_WriteReg(XPSR, 0x01000000)
T566C 000:517.487 - 0.012ms returns 0
T566C 000:517.500 JLINK_WriteReg(MSP, 0x20004000)
T566C 000:517.513 - 0.012ms returns 0
T566C 000:517.525 JLINK_WriteReg(PSP, 0x20004000)
T566C 000:517.539 - 0.013ms returns 0
T566C 000:517.552 JLINK_WriteReg(CFBP, 0x00000000)
T566C 000:517.565 - 0.013ms returns 0
T566C 000:517.578 JLINK_SetBPEx(Addr = 0x20000000, Type = 0xFFFFFFF2)
T566C 000:517.592 - 0.013ms returns 0x00000002
T566C 000:517.605 JLINK_Go()
T566C 000:517.624   CPU_ReadMem(4 bytes @ 0xE0001000)
T566C 000:520.346 - 2.740ms 
T566C 000:520.371 JLINK_IsHalted()
T566C 000:522.689   CPU_ReadMem(2 bytes @ 0x20000000)
T566C 000:523.178 - 2.806ms returns TRUE
T566C 000:523.196 JLINK_ReadReg(R15 (PC))
T566C 000:523.211 - 0.014ms returns 0x20000000
T566C 000:523.226 JLINK_ClrBPEx(BPHandle = 0x00000002)
T566C 000:523.238 - 0.012ms returns 0x00
T566C 000:523.253 JLINK_ReadReg(R0)
T566C 000:523.266 - 0.012ms returns 0x00000001
T566C 000:523.280 JLINK_HasError()
T566C 000:523.295 JLINK_WriteReg(R0, 0x00026000)
T566C 000:523.308 - 0.013ms returns 0
T566C 000:523.322 JLINK_WriteReg(R1, 0x00001000)
T566C 000:523.335 - 0.012ms returns 0
T566C 000:523.349 JLINK_WriteReg(R2, 0x000000FF)
T566C 000:523.366 - 0.016ms returns 0
T566C 000:523.384 JLINK_WriteReg(R3, 0x00000000)
T566C 000:523.400 - 0.015ms returns 0
T566C 000:523.414 JLINK_WriteReg(R4, 0x00000000)
T566C 000:523.427 - 0.012ms returns 0
T566C 000:523.441 JLINK_WriteReg(R5, 0x00000000)
T566C 000:523.454 - 0.013ms returns 0
T566C 000:523.468 JLINK_WriteReg(R6, 0x00000000)
T566C 000:523.481 - 0.012ms returns 0
T566C 000:523.494 JLINK_WriteReg(R7, 0x00000000)
T566C 000:523.507 - 0.012ms returns 0
T566C 000:523.521 JLINK_WriteReg(R8, 0x00000000)
T566C 000:523.534 - 0.013ms returns 0
T566C 000:523.548 JLINK_WriteReg(R9, 0x20000704)
T566C 000:523.561 - 0.013ms returns 0
T566C 000:523.575 JLINK_WriteReg(R10, 0x00000000)
T566C 000:523.588 - 0.013ms returns 0
T566C 000:523.602 JLINK_WriteReg(R11, 0x00000000)
T566C 000:523.614 - 0.012ms returns 0
T566C 000:523.628 JLINK_WriteReg(R12, 0x00000000)
T566C 000:523.641 - 0.012ms returns 0
T566C 000:523.655 JLINK_WriteReg(R13 (SP), 0x20004000)
T566C 000:523.668 - 0.013ms returns 0
T566C 000:523.682 JLINK_WriteReg(R14, 0x20000001)
T566C 000:523.695 - 0.013ms returns 0
T566C 000:523.709 JLINK_WriteReg(R15 (PC), 0x20000158)
T566C 000:523.722 - 0.013ms returns 0
T566C 000:523.736 JLINK_WriteReg(XPSR, 0x01000000)
T566C 000:523.749 - 0.013ms returns 0
T566C 000:523.762 JLINK_WriteReg(MSP, 0x20004000)
T566C 000:523.775 - 0.013ms returns 0
T566C 000:523.789 JLINK_WriteReg(PSP, 0x20004000)
T566C 000:523.802 - 0.012ms returns 0
T566C 000:523.816 JLINK_WriteReg(CFBP, 0x00000000)
T566C 000:523.829 - 0.012ms returns 0
T566C 000:523.844 JLINK_SetBPEx(Addr = 0x20000000, Type = 0xFFFFFFF2)
T566C 000:523.857 - 0.013ms returns 0x00000003
T566C 000:523.871 JLINK_Go()
T566C 000:523.889   CPU_ReadMem(4 bytes @ 0xE0001000)
T566C 000:526.494 - 2.622ms 
T566C 000:526.518 JLINK_IsHalted()
T566C 000:526.992 - 0.473ms returns FALSE
T566C 000:527.009 JLINK_HasError()
T566C 000:540.927 JLINK_IsHalted()
T566C 000:543.142   CPU_ReadMem(2 bytes @ 0x20000000)
T566C 000:543.636 - 2.708ms returns TRUE
T566C 000:543.653 JLINK_ReadReg(R15 (PC))
T566C 000:543.668 - 0.014ms returns 0x20000000
T566C 000:543.681 JLINK_ClrBPEx(BPHandle = 0x00000003)
T566C 000:543.694 - 0.012ms returns 0x00
T566C 000:543.707 JLINK_ReadReg(R0)
T566C 000:543.720 - 0.012ms returns 0x00000000
T566C 000:544.737 JLINK_HasError()
T566C 000:544.768 JLINK_WriteReg(R0, 0x00027000)
T566C 000:544.783 - 0.015ms returns 0
T566C 000:544.796 JLINK_WriteReg(R1, 0x00001000)
T566C 000:544.841 - 0.044ms returns 0
T566C 000:544.854 JLINK_WriteReg(R2, 0x000000FF)
T566C 000:544.867 - 0.012ms returns 0
T566C 000:544.880 JLINK_WriteReg(R3, 0x00000000)
T566C 000:544.898 - 0.017ms returns 0
T566C 000:544.924 JLINK_WriteReg(R4, 0x00000000)
T566C 000:544.942 - 0.017ms returns 0
T566C 000:544.961 JLINK_WriteReg(R5, 0x00000000)
T566C 000:544.980 - 0.018ms returns 0
T566C 000:544.997 JLINK_WriteReg(R6, 0x00000000)
T566C 000:545.013 - 0.016ms returns 0
T566C 000:545.027 JLINK_WriteReg(R7, 0x00000000)
T566C 000:545.039 - 0.012ms returns 0
T566C 000:545.053 JLINK_WriteReg(R8, 0x00000000)
T566C 000:545.065 - 0.012ms returns 0
T566C 000:545.078 JLINK_WriteReg(R9, 0x20000704)
T566C 000:545.091 - 0.012ms returns 0
T566C 000:545.104 JLINK_WriteReg(R10, 0x00000000)
T566C 000:545.117 - 0.012ms returns 0
T566C 000:545.130 JLINK_WriteReg(R11, 0x00000000)
T566C 000:545.143 - 0.012ms returns 0
T566C 000:545.157 JLINK_WriteReg(R12, 0x00000000)
T566C 000:545.169 - 0.012ms returns 0
T566C 000:545.182 JLINK_WriteReg(R13 (SP), 0x20004000)
T566C 000:545.196 - 0.013ms returns 0
T566C 000:545.209 JLINK_WriteReg(R14, 0x20000001)
T566C 000:545.222 - 0.012ms returns 0
T566C 000:545.235 JLINK_WriteReg(R15 (PC), 0x20000314)
T566C 000:545.248 - 0.013ms returns 0
T566C 000:545.262 JLINK_WriteReg(XPSR, 0x01000000)
T566C 000:545.274 - 0.012ms returns 0
T566C 000:545.288 JLINK_WriteReg(MSP, 0x20004000)
T566C 000:545.300 - 0.012ms returns 0
T566C 000:545.313 JLINK_WriteReg(PSP, 0x20004000)
T566C 000:545.326 - 0.012ms returns 0
T566C 000:545.339 JLINK_WriteReg(CFBP, 0x00000000)
T566C 000:545.352 - 0.012ms returns 0
T566C 000:545.366 JLINK_SetBPEx(Addr = 0x20000000, Type = 0xFFFFFFF2)
T566C 000:545.380 - 0.014ms returns 0x00000004
T566C 000:545.393 JLINK_Go()
T566C 000:545.416   CPU_ReadMem(4 bytes @ 0xE0001000)
T566C 000:548.132 - 2.737ms 
T566C 000:548.169 JLINK_IsHalted()
T566C 000:550.473   CPU_ReadMem(2 bytes @ 0x20000000)
T566C 000:550.946 - 2.776ms returns TRUE
T566C 000:550.968 JLINK_ReadReg(R15 (PC))
T566C 000:550.989 - 0.020ms returns 0x20000000
T566C 000:551.005 JLINK_ClrBPEx(BPHandle = 0x00000004)
T566C 000:551.018 - 0.013ms returns 0x00
T566C 000:551.031 JLINK_ReadReg(R0)
T566C 000:551.044 - 0.012ms returns 0x00000001
T566C 000:551.058 JLINK_HasError()
T566C 000:551.071 JLINK_WriteReg(R0, 0x00027000)
T566C 000:551.084 - 0.013ms returns 0
T566C 000:551.098 JLINK_WriteReg(R1, 0x00001000)
T566C 000:551.111 - 0.013ms returns 0
T566C 000:551.124 JLINK_WriteReg(R2, 0x000000FF)
T566C 000:551.137 - 0.012ms returns 0
T566C 000:551.150 JLINK_WriteReg(R3, 0x00000000)
T566C 000:551.163 - 0.012ms returns 0
T566C 000:551.176 JLINK_WriteReg(R4, 0x00000000)
T566C 000:551.189 - 0.012ms returns 0
T566C 000:551.201 JLINK_WriteReg(R5, 0x00000000)
T566C 000:551.214 - 0.012ms returns 0
T566C 000:551.227 JLINK_WriteReg(R6, 0x00000000)
T566C 000:551.240 - 0.012ms returns 0
T566C 000:551.253 JLINK_WriteReg(R7, 0x00000000)
T566C 000:551.265 - 0.012ms returns 0
T566C 000:551.279 JLINK_WriteReg(R8, 0x00000000)
T566C 000:551.291 - 0.012ms returns 0
T566C 000:551.304 JLINK_WriteReg(R9, 0x20000704)
T566C 000:551.317 - 0.012ms returns 0
T566C 000:551.330 JLINK_WriteReg(R10, 0x00000000)
T566C 000:551.343 - 0.012ms returns 0
T566C 000:551.356 JLINK_WriteReg(R11, 0x00000000)
T566C 000:551.370 - 0.014ms returns 0
T566C 000:551.385 JLINK_WriteReg(R12, 0x00000000)
T566C 000:551.398 - 0.013ms returns 0
T566C 000:551.411 JLINK_WriteReg(R13 (SP), 0x20004000)
T566C 000:551.424 - 0.013ms returns 0
T566C 000:551.437 JLINK_WriteReg(R14, 0x20000001)
T566C 000:551.450 - 0.012ms returns 0
T566C 000:551.463 JLINK_WriteReg(R15 (PC), 0x20000158)
T566C 000:551.475 - 0.012ms returns 0
T566C 000:551.489 JLINK_WriteReg(XPSR, 0x01000000)
T566C 000:551.501 - 0.012ms returns 0
T566C 000:551.514 JLINK_WriteReg(MSP, 0x20004000)
T566C 000:551.527 - 0.013ms returns 0
T566C 000:551.540 JLINK_WriteReg(PSP, 0x20004000)
T566C 000:551.552 - 0.012ms returns 0
T566C 000:551.565 JLINK_WriteReg(CFBP, 0x00000000)
T566C 000:551.577 - 0.012ms returns 0
T566C 000:551.591 JLINK_SetBPEx(Addr = 0x20000000, Type = 0xFFFFFFF2)
T566C 000:551.604 - 0.013ms returns 0x00000005
T566C 000:551.617 JLINK_Go()
T566C 000:551.637   CPU_ReadMem(4 bytes @ 0xE0001000)
T566C 000:554.449 - 2.831ms 
T566C 000:554.475 JLINK_IsHalted()
T566C 000:554.944 - 0.468ms returns FALSE
T566C 000:554.967 JLINK_HasError()
T566C 000:558.871 JLINK_IsHalted()
T566C 000:561.358   CPU_ReadMem(2 bytes @ 0x20000000)
T566C 000:561.714 - 2.842ms returns TRUE
T566C 000:561.733 JLINK_ReadReg(R15 (PC))
T566C 000:561.748 - 0.014ms returns 0x20000000
T566C 000:561.762 JLINK_ClrBPEx(BPHandle = 0x00000005)
T566C 000:561.775 - 0.012ms returns 0x00
T566C 000:561.788 JLINK_ReadReg(R0)
T566C 000:561.801 - 0.013ms returns 0x00000000
T566C 000:562.466 JLINK_HasError()
T566C 000:562.495 JLINK_WriteReg(R0, 0x00028000)
T566C 000:562.515 - 0.019ms returns 0
T566C 000:562.535 JLINK_WriteReg(R1, 0x00001000)
T566C 000:562.555 - 0.020ms returns 0
T566C 000:562.575 JLINK_WriteReg(R2, 0x000000FF)
T566C 000:562.594 - 0.019ms returns 0
T566C 000:562.614 JLINK_WriteReg(R3, 0x00000000)
T566C 000:562.633 - 0.018ms returns 0
T566C 000:562.653 JLINK_WriteReg(R4, 0x00000000)
T566C 000:562.673 - 0.019ms returns 0
T566C 000:562.692 JLINK_WriteReg(R5, 0x00000000)
T566C 000:562.711 - 0.019ms returns 0
T566C 000:562.731 JLINK_WriteReg(R6, 0x00000000)
T566C 000:562.750 - 0.019ms returns 0
T566C 000:562.770 JLINK_WriteReg(R7, 0x00000000)
T566C 000:562.789 - 0.018ms returns 0
T566C 000:562.809 JLINK_WriteReg(R8, 0x00000000)
T566C 000:562.828 - 0.019ms returns 0
T566C 000:562.847 JLINK_WriteReg(R9, 0x20000704)
T566C 000:562.874 - 0.027ms returns 0
T566C 000:562.894 JLINK_WriteReg(R10, 0x00000000)
T566C 000:562.914 - 0.020ms returns 0
T566C 000:562.934 JLINK_WriteReg(R11, 0x00000000)
T566C 000:562.952 - 0.018ms returns 0
T566C 000:562.973 JLINK_WriteReg(R12, 0x00000000)
T566C 000:562.992 - 0.019ms returns 0
T566C 000:563.012 JLINK_WriteReg(R13 (SP), 0x20004000)
T566C 000:563.032 - 0.020ms returns 0
T566C 000:563.052 JLINK_WriteReg(R14, 0x20000001)
T566C 000:563.072 - 0.019ms returns 0
T566C 000:563.092 JLINK_WriteReg(R15 (PC), 0x20000314)
T566C 000:563.110 - 0.019ms returns 0
T566C 000:563.131 JLINK_WriteReg(XPSR, 0x01000000)
T566C 000:563.150 - 0.019ms returns 0
T566C 000:563.171 JLINK_WriteReg(MSP, 0x20004000)
T566C 000:563.191 - 0.020ms returns 0
T566C 000:563.211 JLINK_WriteReg(PSP, 0x20004000)
T566C 000:563.229 - 0.018ms returns 0
T566C 000:563.249 JLINK_WriteReg(CFBP, 0x00000000)
T566C 000:563.268 - 0.019ms returns 0
T566C 000:563.289 JLINK_SetBPEx(Addr = 0x20000000, Type = 0xFFFFFFF2)
T566C 000:563.309 - 0.021ms returns 0x00000006
T566C 000:563.329 JLINK_Go()
T566C 000:563.360   CPU_ReadMem(4 bytes @ 0xE0001000)
T566C 000:566.033 - 2.702ms 
T566C 000:566.058 JLINK_IsHalted()
T566C 000:568.331   CPU_ReadMem(2 bytes @ 0x20000000)
T566C 000:568.876 - 2.816ms returns TRUE
T566C 000:568.902 JLINK_ReadReg(R15 (PC))
T566C 000:568.918 - 0.015ms returns 0x20000000
T566C 000:568.932 JLINK_ClrBPEx(BPHandle = 0x00000006)
T566C 000:568.945 - 0.012ms returns 0x00
T566C 000:568.959 JLINK_ReadReg(R0)
T566C 000:568.972 - 0.012ms returns 0x00000001
T566C 000:568.985 JLINK_HasError()
T566C 000:568.999 JLINK_WriteReg(R0, 0x00028000)
T566C 000:569.012 - 0.013ms returns 0
T566C 000:569.029 JLINK_WriteReg(R1, 0x00001000)
T566C 000:569.042 - 0.013ms returns 0
T566C 000:569.055 JLINK_WriteReg(R2, 0x000000FF)
T566C 000:569.068 - 0.012ms returns 0
T566C 000:569.081 JLINK_WriteReg(R3, 0x00000000)
T566C 000:569.093 - 0.012ms returns 0
T566C 000:569.106 JLINK_WriteReg(R4, 0x00000000)
T566C 000:569.119 - 0.012ms returns 0
T566C 000:569.132 JLINK_WriteReg(R5, 0x00000000)
T566C 000:569.144 - 0.012ms returns 0
T566C 000:569.157 JLINK_WriteReg(R6, 0x00000000)
T566C 000:569.170 - 0.012ms returns 0
T566C 000:569.183 JLINK_WriteReg(R7, 0x00000000)
T566C 000:569.196 - 0.012ms returns 0
T566C 000:569.209 JLINK_WriteReg(R8, 0x00000000)
T566C 000:569.221 - 0.012ms returns 0
T566C 000:569.235 JLINK_WriteReg(R9, 0x20000704)
T566C 000:569.247 - 0.012ms returns 0
T566C 000:569.260 JLINK_WriteReg(R10, 0x00000000)
T566C 000:569.273 - 0.013ms returns 0
T566C 000:569.286 JLINK_WriteReg(R11, 0x00000000)
T566C 000:569.299 - 0.012ms returns 0
T566C 000:569.312 JLINK_WriteReg(R12, 0x00000000)
T566C 000:569.325 - 0.012ms returns 0
T566C 000:569.338 JLINK_WriteReg(R13 (SP), 0x20004000)
T566C 000:569.351 - 0.013ms returns 0
T566C 000:569.364 JLINK_WriteReg(R14, 0x20000001)
T566C 000:569.377 - 0.013ms returns 0
T566C 000:569.390 JLINK_WriteReg(R15 (PC), 0x20000158)
T566C 000:569.403 - 0.012ms returns 0
T566C 000:569.417 JLINK_WriteReg(XPSR, 0x01000000)
T566C 000:569.429 - 0.012ms returns 0
T566C 000:569.442 JLINK_WriteReg(MSP, 0x20004000)
T566C 000:569.455 - 0.012ms returns 0
T566C 000:569.468 JLINK_WriteReg(PSP, 0x20004000)
T566C 000:569.481 - 0.012ms returns 0
T566C 000:569.494 JLINK_WriteReg(CFBP, 0x00000000)
T566C 000:569.506 - 0.012ms returns 0
T566C 000:569.520 JLINK_SetBPEx(Addr = 0x20000000, Type = 0xFFFFFFF2)
T566C 000:569.533 - 0.013ms returns 0x00000007
T566C 000:569.546 JLINK_Go()
T566C 000:569.565   CPU_ReadMem(4 bytes @ 0xE0001000)
T566C 000:572.174 - 2.627ms 
T566C 000:572.191 JLINK_IsHalted()
T566C 000:572.683 - 0.492ms returns FALSE
T566C 000:572.699 JLINK_HasError()
T566C 000:575.837 JLINK_IsHalted()
T566C 000:578.038   CPU_ReadMem(2 bytes @ 0x20000000)
T566C 000:578.464 - 2.626ms returns TRUE
T566C 000:578.483 JLINK_ReadReg(R15 (PC))
T566C 000:578.499 - 0.015ms returns 0x20000000
T566C 000:578.513 JLINK_ClrBPEx(BPHandle = 0x00000007)
T566C 000:578.525 - 0.012ms returns 0x00
T566C 000:578.539 JLINK_ReadReg(R0)
T566C 000:578.552 - 0.012ms returns 0x00000000
T566C 000:578.898 JLINK_HasError()
T566C 000:578.918 JLINK_WriteReg(R0, 0x00029000)
T566C 000:578.932 - 0.013ms returns 0
T566C 000:578.945 JLINK_WriteReg(R1, 0x00001000)
T566C 000:578.957 - 0.012ms returns 0
T566C 000:578.970 JLINK_WriteReg(R2, 0x000000FF)
T566C 000:578.983 - 0.012ms returns 0
T566C 000:578.995 JLINK_WriteReg(R3, 0x00000000)
T566C 000:579.008 - 0.012ms returns 0
T566C 000:579.021 JLINK_WriteReg(R4, 0x00000000)
T566C 000:579.034 - 0.013ms returns 0
T566C 000:579.046 JLINK_WriteReg(R5, 0x00000000)
T566C 000:579.058 - 0.012ms returns 0
T566C 000:579.072 JLINK_WriteReg(R6, 0x00000000)
T566C 000:579.084 - 0.012ms returns 0
T566C 000:579.097 JLINK_WriteReg(R7, 0x00000000)
T566C 000:579.110 - 0.012ms returns 0
T566C 000:579.122 JLINK_WriteReg(R8, 0x00000000)
T566C 000:579.135 - 0.012ms returns 0
T566C 000:579.148 JLINK_WriteReg(R9, 0x20000704)
T566C 000:579.160 - 0.012ms returns 0
T566C 000:579.173 JLINK_WriteReg(R10, 0x00000000)
T566C 000:579.185 - 0.012ms returns 0
T566C 000:579.198 JLINK_WriteReg(R11, 0x00000000)
T566C 000:579.211 - 0.012ms returns 0
T566C 000:579.223 JLINK_WriteReg(R12, 0x00000000)
T566C 000:579.236 - 0.012ms returns 0
T566C 000:579.249 JLINK_WriteReg(R13 (SP), 0x20004000)
T566C 000:579.261 - 0.012ms returns 0
T566C 000:579.275 JLINK_WriteReg(R14, 0x20000001)
T566C 000:579.287 - 0.012ms returns 0
T566C 000:579.300 JLINK_WriteReg(R15 (PC), 0x20000314)
T566C 000:579.312 - 0.012ms returns 0
T566C 000:579.325 JLINK_WriteReg(XPSR, 0x01000000)
T566C 000:579.338 - 0.012ms returns 0
T566C 000:579.351 JLINK_WriteReg(MSP, 0x20004000)
T566C 000:579.420 - 0.068ms returns 0
T566C 000:579.442 JLINK_WriteReg(PSP, 0x20004000)
T566C 000:579.465 - 0.022ms returns 0
T566C 000:579.482 JLINK_WriteReg(CFBP, 0x00000000)
T566C 000:579.495 - 0.012ms returns 0
T566C 000:579.508 JLINK_SetBPEx(Addr = 0x20000000, Type = 0xFFFFFFF2)
T566C 000:579.522 - 0.013ms returns 0x00000008
T566C 000:579.534 JLINK_Go()
T566C 000:579.554   CPU_ReadMem(4 bytes @ 0xE0001000)
T566C 000:582.317 - 2.781ms 
T566C 000:582.345 JLINK_IsHalted()
T566C 000:584.691   CPU_ReadMem(2 bytes @ 0x20000000)
T566C 000:585.190 - 2.844ms returns TRUE
T566C 000:585.209 JLINK_ReadReg(R15 (PC))
T566C 000:585.224 - 0.014ms returns 0x20000000
T566C 000:585.238 JLINK_ClrBPEx(BPHandle = 0x00000008)
T566C 000:585.252 - 0.013ms returns 0x00
T566C 000:585.266 JLINK_ReadReg(R0)
T566C 000:585.279 - 0.013ms returns 0x00000001
T566C 000:585.294 JLINK_HasError()
T566C 000:585.309 JLINK_WriteReg(R0, 0x00029000)
T566C 000:585.322 - 0.013ms returns 0
T566C 000:585.336 JLINK_WriteReg(R1, 0x00001000)
T566C 000:585.349 - 0.013ms returns 0
T566C 000:585.363 JLINK_WriteReg(R2, 0x000000FF)
T566C 000:585.375 - 0.012ms returns 0
T566C 000:585.389 JLINK_WriteReg(R3, 0x00000000)
T566C 000:585.402 - 0.013ms returns 0
T566C 000:585.416 JLINK_WriteReg(R4, 0x00000000)
T566C 000:585.429 - 0.013ms returns 0
T566C 000:585.442 JLINK_WriteReg(R5, 0x00000000)
T566C 000:585.456 - 0.013ms returns 0
T566C 000:585.469 JLINK_WriteReg(R6, 0x00000000)
T566C 000:585.482 - 0.012ms returns 0
T566C 000:585.496 JLINK_WriteReg(R7, 0x00000000)
T566C 000:585.508 - 0.012ms returns 0
T566C 000:585.523 JLINK_WriteReg(R8, 0x00000000)
T566C 000:585.535 - 0.012ms returns 0
T566C 000:585.549 JLINK_WriteReg(R9, 0x20000704)
T566C 000:585.562 - 0.012ms returns 0
T566C 000:585.576 JLINK_WriteReg(R10, 0x00000000)
T566C 000:585.589 - 0.013ms returns 0
T566C 000:585.603 JLINK_WriteReg(R11, 0x00000000)
T566C 000:585.615 - 0.012ms returns 0
T566C 000:585.629 JLINK_WriteReg(R12, 0x00000000)
T566C 000:585.642 - 0.012ms returns 0
T566C 000:585.655 JLINK_WriteReg(R13 (SP), 0x20004000)
T566C 000:585.668 - 0.013ms returns 0
T566C 000:585.682 JLINK_WriteReg(R14, 0x20000001)
T566C 000:585.694 - 0.012ms returns 0
T566C 000:585.708 JLINK_WriteReg(R15 (PC), 0x20000158)
T566C 000:585.720 - 0.012ms returns 0
T566C 000:585.734 JLINK_WriteReg(XPSR, 0x01000000)
T566C 000:585.747 - 0.012ms returns 0
T566C 000:585.760 JLINK_WriteReg(MSP, 0x20004000)
T566C 000:585.773 - 0.012ms returns 0
T566C 000:585.786 JLINK_WriteReg(PSP, 0x20004000)
T566C 000:585.800 - 0.014ms returns 0
T566C 000:585.819 JLINK_WriteReg(CFBP, 0x00000000)
T566C 000:585.835 - 0.015ms returns 0
T566C 000:585.849 JLINK_SetBPEx(Addr = 0x20000000, Type = 0xFFFFFFF2)
T566C 000:585.863 - 0.014ms returns 0x00000009
T566C 000:585.878 JLINK_Go()
T566C 000:585.896   CPU_ReadMem(4 bytes @ 0xE0001000)
T566C 000:588.638 - 2.759ms 
T566C 000:588.662 JLINK_IsHalted()
T566C 000:589.147 - 0.484ms returns FALSE
T566C 000:589.166 JLINK_HasError()
T566C 000:591.795 JLINK_IsHalted()
T566C 000:594.012   CPU_ReadMem(2 bytes @ 0x20000000)
T566C 000:594.659 - 2.863ms returns TRUE
T566C 000:594.683 JLINK_ReadReg(R15 (PC))
T566C 000:594.703 - 0.019ms returns 0x20000000
T566C 000:594.717 JLINK_ClrBPEx(BPHandle = 0x00000009)
T566C 000:594.731 - 0.013ms returns 0x00
T566C 000:594.745 JLINK_ReadReg(R0)
T566C 000:594.758 - 0.012ms returns 0x00000000
T566C 000:595.193 JLINK_HasError()
T566C 000:595.229 JLINK_WriteReg(R0, 0x0002A000)
T566C 000:595.250 - 0.021ms returns 0
T566C 000:595.266 JLINK_WriteReg(R1, 0x00001000)
T566C 000:595.279 - 0.013ms returns 0
T566C 000:595.292 JLINK_WriteReg(R2, 0x000000FF)
T566C 000:595.305 - 0.012ms returns 0
T566C 000:595.318 JLINK_WriteReg(R3, 0x00000000)
T566C 000:595.330 - 0.012ms returns 0
T566C 000:595.343 JLINK_WriteReg(R4, 0x00000000)
T566C 000:595.360 - 0.016ms returns 0
T566C 000:595.377 JLINK_WriteReg(R5, 0x00000000)
T566C 000:595.394 - 0.017ms returns 0
T566C 000:595.412 JLINK_WriteReg(R6, 0x00000000)
T566C 000:595.432 - 0.019ms returns 0
T566C 000:595.447 JLINK_WriteReg(R7, 0x00000000)
T566C 000:595.460 - 0.012ms returns 0
T566C 000:595.473 JLINK_WriteReg(R8, 0x00000000)
T566C 000:595.487 - 0.013ms returns 0
T566C 000:595.500 JLINK_WriteReg(R9, 0x20000704)
T566C 000:595.513 - 0.013ms returns 0
T566C 000:595.526 JLINK_WriteReg(R10, 0x00000000)
T566C 000:595.538 - 0.012ms returns 0
T566C 000:595.552 JLINK_WriteReg(R11, 0x00000000)
T566C 000:595.565 - 0.012ms returns 0
T566C 000:595.578 JLINK_WriteReg(R12, 0x00000000)
T566C 000:595.591 - 0.013ms returns 0
T566C 000:595.604 JLINK_WriteReg(R13 (SP), 0x20004000)
T566C 000:595.618 - 0.013ms returns 0
T566C 000:595.630 JLINK_WriteReg(R14, 0x20000001)
T566C 000:595.643 - 0.012ms returns 0
T566C 000:595.657 JLINK_WriteReg(R15 (PC), 0x20000314)
T566C 000:595.669 - 0.012ms returns 0
T566C 000:595.682 JLINK_WriteReg(XPSR, 0x01000000)
T566C 000:595.695 - 0.013ms returns 0
T566C 000:595.708 JLINK_WriteReg(MSP, 0x20004000)
T566C 000:595.722 - 0.013ms returns 0
T566C 000:595.735 JLINK_WriteReg(PSP, 0x20004000)
T566C 000:595.748 - 0.012ms returns 0
T566C 000:595.762 JLINK_WriteReg(CFBP, 0x00000000)
T566C 000:595.780 - 0.017ms returns 0
T566C 000:595.799 JLINK_SetBPEx(Addr = 0x20000000, Type = 0xFFFFFFF2)
T566C 000:595.818 - 0.018ms returns 0x0000000A
T566C 000:595.835 JLINK_Go()
T566C 000:595.860   CPU_ReadMem(4 bytes @ 0xE0001000)
T566C 000:598.889 - 3.053ms 
T566C 000:598.914 JLINK_IsHalted()
T566C 000:601.196   CPU_ReadMem(2 bytes @ 0x20000000)
T566C 000:601.668 - 2.753ms returns TRUE
T566C 000:601.685 JLINK_ReadReg(R15 (PC))
T566C 000:601.700 - 0.015ms returns 0x20000000
T566C 000:601.714 JLINK_ClrBPEx(BPHandle = 0x0000000A)
T566C 000:601.727 - 0.012ms returns 0x00
T566C 000:601.741 JLINK_ReadReg(R0)
T566C 000:601.755 - 0.013ms returns 0x00000001
T566C 000:601.770 JLINK_HasError()
T566C 000:601.790 JLINK_WriteReg(R0, 0x0002A000)
T566C 000:601.811 - 0.020ms returns 0
T566C 000:601.828 JLINK_WriteReg(R1, 0x00001000)
T566C 000:601.841 - 0.012ms returns 0
T566C 000:601.855 JLINK_WriteReg(R2, 0x000000FF)
T566C 000:601.867 - 0.012ms returns 0
T566C 000:601.880 JLINK_WriteReg(R3, 0x00000000)
T566C 000:601.893 - 0.012ms returns 0
T566C 000:601.906 JLINK_WriteReg(R4, 0x00000000)
T566C 000:601.918 - 0.012ms returns 0
T566C 000:601.931 JLINK_WriteReg(R5, 0x00000000)
T566C 000:601.943 - 0.012ms returns 0
T566C 000:601.957 JLINK_WriteReg(R6, 0x00000000)
T566C 000:601.970 - 0.012ms returns 0
T566C 000:601.983 JLINK_WriteReg(R7, 0x00000000)
T566C 000:601.995 - 0.012ms returns 0
T566C 000:602.008 JLINK_WriteReg(R8, 0x00000000)
T566C 000:602.021 - 0.012ms returns 0
T566C 000:602.034 JLINK_WriteReg(R9, 0x20000704)
T566C 000:602.046 - 0.012ms returns 0
T566C 000:602.060 JLINK_WriteReg(R10, 0x00000000)
T566C 000:602.073 - 0.012ms returns 0
T566C 000:602.085 JLINK_WriteReg(R11, 0x00000000)
T566C 000:602.099 - 0.013ms returns 0
T566C 000:602.112 JLINK_WriteReg(R12, 0x00000000)
T566C 000:602.125 - 0.012ms returns 0
T566C 000:602.138 JLINK_WriteReg(R13 (SP), 0x20004000)
T566C 000:602.150 - 0.012ms returns 0
T566C 000:602.164 JLINK_WriteReg(R14, 0x20000001)
T566C 000:602.176 - 0.012ms returns 0
T566C 000:602.189 JLINK_WriteReg(R15 (PC), 0x20000158)
T566C 000:602.202 - 0.013ms returns 0
T566C 000:602.215 JLINK_WriteReg(XPSR, 0x01000000)
T566C 000:602.228 - 0.012ms returns 0
T566C 000:602.240 JLINK_WriteReg(MSP, 0x20004000)
T566C 000:602.253 - 0.012ms returns 0
T566C 000:602.266 JLINK_WriteReg(PSP, 0x20004000)
T566C 000:602.279 - 0.012ms returns 0
T566C 000:602.292 JLINK_WriteReg(CFBP, 0x00000000)
T566C 000:602.305 - 0.013ms returns 0
T566C 000:602.318 JLINK_SetBPEx(Addr = 0x20000000, Type = 0xFFFFFFF2)
T566C 000:602.332 - 0.013ms returns 0x0000000B
T566C 000:602.345 JLINK_Go()
T566C 000:602.363   CPU_ReadMem(4 bytes @ 0xE0001000)
T566C 000:604.993 - 2.648ms 
T566C 000:605.012 JLINK_IsHalted()
T566C 000:605.482 - 0.469ms returns FALSE
T566C 000:605.499 JLINK_HasError()
T566C 000:608.743 JLINK_IsHalted()
T566C 000:611.074   CPU_ReadMem(2 bytes @ 0x20000000)
T566C 000:611.876 - 3.132ms returns TRUE
T566C 000:611.908 JLINK_ReadReg(R15 (PC))
T566C 000:611.929 - 0.020ms returns 0x20000000
T566C 000:611.946 JLINK_ClrBPEx(BPHandle = 0x0000000B)
T566C 000:611.962 - 0.016ms returns 0x00
T566C 000:611.979 JLINK_ReadReg(R0)
T566C 000:611.995 - 0.016ms returns 0x00000000
T566C 000:612.444 JLINK_HasError()
T566C 000:612.469 JLINK_WriteReg(R0, 0x0002B000)
T566C 000:612.483 - 0.014ms returns 0
T566C 000:612.497 JLINK_WriteReg(R1, 0x00001000)
T566C 000:612.510 - 0.013ms returns 0
T566C 000:612.522 JLINK_WriteReg(R2, 0x000000FF)
T566C 000:612.535 - 0.012ms returns 0
T566C 000:612.548 JLINK_WriteReg(R3, 0x00000000)
T566C 000:612.560 - 0.012ms returns 0
T566C 000:612.574 JLINK_WriteReg(R4, 0x00000000)
T566C 000:612.587 - 0.013ms returns 0
T566C 000:612.604 JLINK_WriteReg(R5, 0x00000000)
T566C 000:612.617 - 0.013ms returns 0
T566C 000:612.630 JLINK_WriteReg(R6, 0x00000000)
T566C 000:612.644 - 0.013ms returns 0
T566C 000:612.657 JLINK_WriteReg(R7, 0x00000000)
T566C 000:612.669 - 0.012ms returns 0
T566C 000:612.683 JLINK_WriteReg(R8, 0x00000000)
T566C 000:612.695 - 0.012ms returns 0
T566C 000:612.708 JLINK_WriteReg(R9, 0x20000704)
T566C 000:612.721 - 0.013ms returns 0
T566C 000:612.739 JLINK_WriteReg(R10, 0x00000000)
T566C 000:612.757 - 0.018ms returns 0
T566C 000:612.777 JLINK_WriteReg(R11, 0x00000000)
T566C 000:612.796 - 0.019ms returns 0
T566C 000:612.816 JLINK_WriteReg(R12, 0x00000000)
T566C 000:612.835 - 0.018ms returns 0
T566C 000:612.855 JLINK_WriteReg(R13 (SP), 0x20004000)
T566C 000:612.876 - 0.020ms returns 0
T566C 000:612.895 JLINK_WriteReg(R14, 0x20000001)
T566C 000:612.915 - 0.019ms returns 0
T566C 000:612.935 JLINK_WriteReg(R15 (PC), 0x20000314)
T566C 000:612.955 - 0.019ms returns 0
T566C 000:612.975 JLINK_WriteReg(XPSR, 0x01000000)
T566C 000:612.993 - 0.018ms returns 0
T566C 000:613.013 JLINK_WriteReg(MSP, 0x20004000)
T566C 000:613.033 - 0.019ms returns 0
T566C 000:613.053 JLINK_WriteReg(PSP, 0x20004000)
T566C 000:613.072 - 0.019ms returns 0
T566C 000:613.091 JLINK_WriteReg(CFBP, 0x00000000)
T566C 000:613.111 - 0.019ms returns 0
T566C 000:613.131 JLINK_SetBPEx(Addr = 0x20000000, Type = 0xFFFFFFF2)
T566C 000:613.152 - 0.020ms returns 0x0000000C
T566C 000:613.172 JLINK_Go()
T566C 000:613.204   CPU_ReadMem(4 bytes @ 0xE0001000)
T566C 000:616.030 - 2.857ms 
T566C 000:616.056 JLINK_IsHalted()
T566C 000:618.310   CPU_ReadMem(2 bytes @ 0x20000000)
T566C 000:618.779 - 2.722ms returns TRUE
T566C 000:618.800 JLINK_ReadReg(R15 (PC))
T566C 000:618.816 - 0.015ms returns 0x20000000
T566C 000:618.830 JLINK_ClrBPEx(BPHandle = 0x0000000C)
T566C 000:618.843 - 0.013ms returns 0x00
T566C 000:618.858 JLINK_ReadReg(R0)
T566C 000:618.871 - 0.012ms returns 0x00000001
T566C 000:618.886 JLINK_HasError()
T566C 000:618.900 JLINK_WriteReg(R0, 0x0002B000)
T566C 000:618.914 - 0.013ms returns 0
T566C 000:618.927 JLINK_WriteReg(R1, 0x00001000)
T566C 000:618.940 - 0.013ms returns 0
T566C 000:618.954 JLINK_WriteReg(R2, 0x000000FF)
T566C 000:618.967 - 0.012ms returns 0
T566C 000:618.980 JLINK_WriteReg(R3, 0x00000000)
T566C 000:618.993 - 0.013ms returns 0
T566C 000:619.007 JLINK_WriteReg(R4, 0x00000000)
T566C 000:619.020 - 0.013ms returns 0
T566C 000:619.034 JLINK_WriteReg(R5, 0x00000000)
T566C 000:619.047 - 0.012ms returns 0
T566C 000:619.062 JLINK_WriteReg(R6, 0x00000000)
T566C 000:619.074 - 0.012ms returns 0
T566C 000:619.089 JLINK_WriteReg(R7, 0x00000000)
T566C 000:619.101 - 0.012ms returns 0
T566C 000:619.115 JLINK_WriteReg(R8, 0x00000000)
T566C 000:619.128 - 0.013ms returns 0
T566C 000:619.142 JLINK_WriteReg(R9, 0x20000704)
T566C 000:619.155 - 0.013ms returns 0
T566C 000:619.169 JLINK_WriteReg(R10, 0x00000000)
T566C 000:619.182 - 0.013ms returns 0
T566C 000:619.196 JLINK_WriteReg(R11, 0x00000000)
T566C 000:619.209 - 0.013ms returns 0
T566C 000:619.223 JLINK_WriteReg(R12, 0x00000000)
T566C 000:619.237 - 0.013ms returns 0
T566C 000:619.251 JLINK_WriteReg(R13 (SP), 0x20004000)
T566C 000:619.264 - 0.013ms returns 0
T566C 000:619.281 JLINK_WriteReg(R14, 0x20000001)
T566C 000:619.293 - 0.012ms returns 0
T566C 000:619.308 JLINK_WriteReg(R15 (PC), 0x20000158)
T566C 000:619.320 - 0.012ms returns 0
T566C 000:619.335 JLINK_WriteReg(XPSR, 0x01000000)
T566C 000:619.347 - 0.012ms returns 0
T566C 000:619.361 JLINK_WriteReg(MSP, 0x20004000)
T566C 000:619.374 - 0.013ms returns 0
T566C 000:619.388 JLINK_WriteReg(PSP, 0x20004000)
T566C 000:619.401 - 0.013ms returns 0
T566C 000:619.415 JLINK_WriteReg(CFBP, 0x00000000)
T566C 000:619.429 - 0.013ms returns 0
T566C 000:619.443 JLINK_SetBPEx(Addr = 0x20000000, Type = 0xFFFFFFF2)
T566C 000:619.457 - 0.014ms returns 0x0000000D
T566C 000:619.472 JLINK_Go()
T566C 000:619.490   CPU_ReadMem(4 bytes @ 0xE0001000)
T566C 000:622.230 - 2.758ms 
T566C 000:622.249 JLINK_IsHalted()
T566C 000:622.717 - 0.467ms returns FALSE
T566C 000:622.743 JLINK_HasError()
T566C 000:626.711 JLINK_IsHalted()
T566C 000:629.011   CPU_ReadMem(2 bytes @ 0x20000000)
T566C 000:629.488 - 2.776ms returns TRUE
T566C 000:629.514 JLINK_ReadReg(R15 (PC))
T566C 000:629.529 - 0.015ms returns 0x20000000
T566C 000:629.542 JLINK_ClrBPEx(BPHandle = 0x0000000D)
T566C 000:629.555 - 0.012ms returns 0x00
T566C 000:629.569 JLINK_ReadReg(R0)
T566C 000:629.581 - 0.012ms returns 0x00000000
T566C 000:629.951 JLINK_HasError()
T566C 000:629.972 JLINK_WriteReg(R0, 0x0002C000)
T566C 000:629.986 - 0.014ms returns 0
T566C 000:629.999 JLINK_WriteReg(R1, 0x00001000)
T566C 000:630.012 - 0.012ms returns 0
T566C 000:630.025 JLINK_WriteReg(R2, 0x000000FF)
T566C 000:630.038 - 0.012ms returns 0
T566C 000:630.050 JLINK_WriteReg(R3, 0x00000000)
T566C 000:630.063 - 0.012ms returns 0
T566C 000:630.076 JLINK_WriteReg(R4, 0x00000000)
T566C 000:630.089 - 0.012ms returns 0
T566C 000:630.102 JLINK_WriteReg(R5, 0x00000000)
T566C 000:630.114 - 0.012ms returns 0
T566C 000:630.127 JLINK_WriteReg(R6, 0x00000000)
T566C 000:630.140 - 0.012ms returns 0
T566C 000:630.153 JLINK_WriteReg(R7, 0x00000000)
T566C 000:630.166 - 0.012ms returns 0
T566C 000:630.179 JLINK_WriteReg(R8, 0x00000000)
T566C 000:630.192 - 0.013ms returns 0
T566C 000:630.206 JLINK_WriteReg(R9, 0x20000704)
T566C 000:630.218 - 0.012ms returns 0
T566C 000:630.232 JLINK_WriteReg(R10, 0x00000000)
T566C 000:630.244 - 0.012ms returns 0
T566C 000:630.257 JLINK_WriteReg(R11, 0x00000000)
T566C 000:630.270 - 0.013ms returns 0
T566C 000:630.283 JLINK_WriteReg(R12, 0x00000000)
T566C 000:630.296 - 0.013ms returns 0
T566C 000:630.309 JLINK_WriteReg(R13 (SP), 0x20004000)
T566C 000:630.322 - 0.012ms returns 0
T566C 000:630.336 JLINK_WriteReg(R14, 0x20000001)
T566C 000:630.348 - 0.012ms returns 0
T566C 000:630.362 JLINK_WriteReg(R15 (PC), 0x20000314)
T566C 000:630.375 - 0.013ms returns 0
T566C 000:630.388 JLINK_WriteReg(XPSR, 0x01000000)
T566C 000:630.401 - 0.013ms returns 0
T566C 000:630.414 JLINK_WriteReg(MSP, 0x20004000)
T566C 000:630.426 - 0.012ms returns 0
T566C 000:630.440 JLINK_WriteReg(PSP, 0x20004000)
T566C 000:630.453 - 0.012ms returns 0
T566C 000:630.466 JLINK_WriteReg(CFBP, 0x00000000)
T566C 000:630.479 - 0.013ms returns 0
T566C 000:630.493 JLINK_SetBPEx(Addr = 0x20000000, Type = 0xFFFFFFF2)
T566C 000:630.507 - 0.014ms returns 0x0000000E
T566C 000:630.520 JLINK_Go()
T566C 000:630.541   CPU_ReadMem(4 bytes @ 0xE0001000)
T566C 000:633.205 - 2.684ms 
T566C 000:633.228 JLINK_IsHalted()
T566C 000:635.535   CPU_ReadMem(2 bytes @ 0x20000000)
T566C 000:636.020 - 2.792ms returns TRUE
T566C 000:636.038 JLINK_ReadReg(R15 (PC))
T566C 000:636.052 - 0.014ms returns 0x20000000
T566C 000:636.067 JLINK_ClrBPEx(BPHandle = 0x0000000E)
T566C 000:636.080 - 0.013ms returns 0x00
T566C 000:636.093 JLINK_ReadReg(R0)
T566C 000:636.106 - 0.013ms returns 0x00000001
T566C 000:636.120 JLINK_HasError()
T566C 000:636.134 JLINK_WriteReg(R0, 0x0002C000)
T566C 000:636.147 - 0.012ms returns 0
T566C 000:636.160 JLINK_WriteReg(R1, 0x00001000)
T566C 000:636.173 - 0.013ms returns 0
T566C 000:636.186 JLINK_WriteReg(R2, 0x000000FF)
T566C 000:636.200 - 0.013ms returns 0
T566C 000:636.216 JLINK_WriteReg(R3, 0x00000000)
T566C 000:636.228 - 0.012ms returns 0
T566C 000:636.242 JLINK_WriteReg(R4, 0x00000000)
T566C 000:636.254 - 0.012ms returns 0
T566C 000:636.267 JLINK_WriteReg(R5, 0x00000000)
T566C 000:636.280 - 0.012ms returns 0
T566C 000:636.293 JLINK_WriteReg(R6, 0x00000000)
T566C 000:636.306 - 0.013ms returns 0
T566C 000:636.319 JLINK_WriteReg(R7, 0x00000000)
T566C 000:636.331 - 0.012ms returns 0
T566C 000:636.345 JLINK_WriteReg(R8, 0x00000000)
T566C 000:636.357 - 0.012ms returns 0
T566C 000:636.370 JLINK_WriteReg(R9, 0x20000704)
T566C 000:636.383 - 0.012ms returns 0
T566C 000:636.396 JLINK_WriteReg(R10, 0x00000000)
T566C 000:636.409 - 0.012ms returns 0
T566C 000:636.422 JLINK_WriteReg(R11, 0x00000000)
T566C 000:636.435 - 0.012ms returns 0
T566C 000:636.448 JLINK_WriteReg(R12, 0x00000000)
T566C 000:636.461 - 0.012ms returns 0
T566C 000:636.474 JLINK_WriteReg(R13 (SP), 0x20004000)
T566C 000:636.487 - 0.013ms returns 0
T566C 000:636.500 JLINK_WriteReg(R14, 0x20000001)
T566C 000:636.513 - 0.013ms returns 0
T566C 000:636.526 JLINK_WriteReg(R15 (PC), 0x20000158)
T566C 000:636.538 - 0.012ms returns 0
T566C 000:636.552 JLINK_WriteReg(XPSR, 0x01000000)
T566C 000:636.565 - 0.012ms returns 0
T566C 000:636.578 JLINK_WriteReg(MSP, 0x20004000)
T566C 000:636.591 - 0.013ms returns 0
T566C 000:636.604 JLINK_WriteReg(PSP, 0x20004000)
T566C 000:636.617 - 0.013ms returns 0
T566C 000:636.630 JLINK_WriteReg(CFBP, 0x00000000)
T566C 000:636.642 - 0.012ms returns 0
T566C 000:636.656 JLINK_SetBPEx(Addr = 0x20000000, Type = 0xFFFFFFF2)
T566C 000:636.674 - 0.018ms returns 0x0000000F
T566C 000:636.692 JLINK_Go()
T566C 000:636.710   CPU_ReadMem(4 bytes @ 0xE0001000)
T566C 000:639.315 - 2.622ms 
T566C 000:639.333 JLINK_IsHalted()
T566C 000:639.865 - 0.532ms returns FALSE
T566C 000:639.883 JLINK_HasError()
